<Qucs Dataset 0.0.19>
<indep UV1 200>
  +0.00000000000000000000e+000
  +6.03015075376884396308e-002
  +1.20603015075376879262e-001
  +1.80904522613065332770e-001
  +2.41206030150753758523e-001
  +3.01507537688442184276e-001
  +3.61809045226130665540e-001
  +4.22110552763819091293e-001
  +4.82412060301507517046e-001
  +5.42713567839195998310e-001
  +6.03015075376884368552e-001
  +6.63316582914572849816e-001
  +7.23618090452261331080e-001
  +7.83919597989949701322e-001
  +8.44221105527638182586e-001
  +9.04522613065326663850e-001
  +9.64824120603015034092e-001
  +1.02512562814070351536e+000
  +1.08542713567839199662e+000
  +1.14572864321608047788e+000
  +1.20603015075376873710e+000
  +1.26633165829145721837e+000
  +1.32663316582914569963e+000
  +1.38693467336683418090e+000
  +1.44723618090452266216e+000
  +1.50753768844221114342e+000
  +1.56783919597989940264e+000
  +1.62814070351758788391e+000
  +1.68844221105527636517e+000
  +1.74874371859296484644e+000
  +1.80904522613065332770e+000
  +1.86934673366834180896e+000
  +1.92964824120603006818e+000
  +1.98994974874371854945e+000
  +2.05025125628140703071e+000
  +2.11055276381909528993e+000
  +2.17085427135678399324e+000
  +2.23115577889447225246e+000
  +2.29145728643216095577e+000
  +2.35175879396984921499e+000
  +2.41206030150753747421e+000
  +2.47236180904522617752e+000
  +2.53266331658291443674e+000
  +2.59296482412060314005e+000
  +2.65326633165829139926e+000
  +2.71356783919598010257e+000
  +2.77386934673366836179e+000
  +2.83417085427135662101e+000
  +2.89447236180904532432e+000
  +2.95477386934673358354e+000
  +3.01507537688442228685e+000
  +3.07537688442211054607e+000
  +3.13567839195979880529e+000
  +3.19597989949748750860e+000
  +3.25628140703517576782e+000
  +3.31658291457286447113e+000
  +3.37688442211055273035e+000
  +3.43718592964824098956e+000
  +3.49748743718592969287e+000
  +3.55778894472361795209e+000
  +3.61809045226130665540e+000
  +3.67839195979899491462e+000
  +3.73869346733668361793e+000
  +3.79899497487437187715e+000
  +3.85929648241206013637e+000
  +3.91959798994974883968e+000
  +3.97989949748743709890e+000
  +4.04020100502512580221e+000
  +4.10050251256281406143e+000
  +4.16080402010050232064e+000
  +4.22110552763819057986e+000
  +4.28140703517587972726e+000
  +4.34170854271356798648e+000
  +4.40201005025125624570e+000
  +4.46231155778894450492e+000
  +4.52261306532663276414e+000
  +4.58291457286432191154e+000
  +4.64321608040201017076e+000
  +4.70351758793969842998e+000
  +4.76381909547738668920e+000
  +4.82412060301507494842e+000
  +4.88442211055276409581e+000
  +4.94472361809045235503e+000
  +5.00502512562814061425e+000
  +5.06532663316582887347e+000
  +5.12562814070351802087e+000
  +5.18592964824120628009e+000
  +5.24623115577889453931e+000
  +5.30653266331658279853e+000
  +5.36683417085427105775e+000
  +5.42713567839196020515e+000
  +5.48743718592964846437e+000
  +5.54773869346733672359e+000
  +5.60804020100502498281e+000
  +5.66834170854271324203e+000
  +5.72864321608040238942e+000
  +5.78894472361809064864e+000
  +5.84924623115577890786e+000
  +5.90954773869346716708e+000
  +5.96984924623115542630e+000
  +6.03015075376884457370e+000
  +6.09045226130653283292e+000
  +6.15075376884422109214e+000
  +6.21105527638190935136e+000
  +6.27135678391959761058e+000
  +6.33165829145728675797e+000
  +6.39195979899497501719e+000
  +6.45226130653266327641e+000
  +6.51256281407035153563e+000
  +6.57286432160803979485e+000
  +6.63316582914572894225e+000
  +6.69346733668341720147e+000
  +6.75376884422110546069e+000
  +6.81407035175879371991e+000
  +6.87437185929648197913e+000
  +6.93467336683417112653e+000
  +6.99497487437185938575e+000
  +7.05527638190954764497e+000
  +7.11557788944723590419e+000
  +7.17587939698492505158e+000
  +7.23618090452261331080e+000
  +7.29648241206030157002e+000
  +7.35678391959798982924e+000
  +7.41708542713567808846e+000
  +7.47738693467336723586e+000
  +7.53768844221105549508e+000
  +7.59798994974874375430e+000
  +7.65829145728643201352e+000
  +7.71859296482412027274e+000
  +7.77889447236180942014e+000
  +7.83919597989949767936e+000
  +7.89949748743718593857e+000
  +7.95979899497487419779e+000
  +8.02010050251256245701e+000
  +8.08040201005025160441e+000
  +8.14070351758793897545e+000
  +8.20100502512562812285e+000
  +8.26130653266331727025e+000
  +8.32160804020100464129e+000
  +8.38190954773869378869e+000
  +8.44221105527638115973e+000
  +8.50251256281407030713e+000
  +8.56281407035175945452e+000
  +8.62311557788944682557e+000
  +8.68341708542713597296e+000
  +8.74371859296482334400e+000
  +8.80402010050251249140e+000
  +8.86432160804020163880e+000
  +8.92462311557788900984e+000
  +8.98492462311557815724e+000
  +9.04522613065326552828e+000
  +9.10552763819095467568e+000
  +9.16582914572864382308e+000
  +9.22613065326633119412e+000
  +9.28643216080402034152e+000
  +9.34673366834170771256e+000
  +9.40703517587939685995e+000
  +9.46733668341708600735e+000
  +9.52763819095477337839e+000
  +9.58793969849246252579e+000
  +9.64824120603014989683e+000
  +9.70854271356783904423e+000
  +9.76884422110552819163e+000
  +9.82914572864321556267e+000
  +9.88944723618090471007e+000
  +9.94974874371859208111e+000
  +1.00100502512562812285e+001
  +1.00703517587939703759e+001
  +1.01306532663316577469e+001
  +1.01909547738693468943e+001
  +1.02512562814070360417e+001
  +1.03115577889447234128e+001
  +1.03718592964824125602e+001
  +1.04321608040200999312e+001
  +1.04924623115577890786e+001
  +1.05527638190954782260e+001
  +1.06130653266331655971e+001
  +1.06733668341708547445e+001
  +1.07336683417085421155e+001
  +1.07939698492462312629e+001
  +1.08542713567839204103e+001
  +1.09145728643216077813e+001
  +1.09748743718592969287e+001
  +1.10351758793969842998e+001
  +1.10954773869346734472e+001
  +1.11557788944723625946e+001
  +1.12160804020100499656e+001
  +1.12763819095477391130e+001
  +1.13366834170854264841e+001
  +1.13969849246231156314e+001
  +1.14572864321608047788e+001
  +1.15175879396984921499e+001
  +1.15778894472361812973e+001
  +1.16381909547738686683e+001
  +1.16984924623115578157e+001
  +1.17587939698492469631e+001
  +1.18190954773869343342e+001
  +1.18793969849246234816e+001
  +1.19396984924623108526e+001
  +1.20000000000000000000e+001
</indep>
<dep V1.I UV1>
  +0.00000000000000000000e+000
  +3.98550574553614288238e-017
  +7.97101149107228576476e-017
  +1.19565159131194497949e-016
  +1.59420229821445715295e-016
  +1.99275300511696957293e-016
  +2.39130318262388995898e-016
  +2.78985441892199441290e-016
  +3.18840459642891430590e-016
  +3.58695477393583469195e-016
  +3.98550601023393914587e-016
  +4.38405618774085953191e-016
  +4.78260636524777991796e-016
  +5.18115654275470030400e-016
  +5.57970883784398882580e-016
  +5.97825689776854009001e-016
  +6.37680919285782861181e-016
  +6.77535937036474899785e-016
  +7.17390954787166938390e-016
  +7.57245972537858976994e-016
  +7.97101202046787829174e-016
  +8.36956008039243054203e-016
  +8.76811237548171906382e-016
  +9.16666255298863944987e-016
  +9.56521273049555983591e-016
  +9.96376290800248022196e-016
  +1.03623130855094006080e-015
  +1.07608674981810572655e-015
  +1.11594176756879776516e-015
  +1.15579636180301617661e-015
  +1.19565137955370801800e-015
  +1.23550639730440005661e-015
  +1.27536183857156572236e-015
  +1.31521685632225776097e-015
  +1.35507229758942342672e-015
  +1.39492731534011546533e-015
  +1.43478275660728113108e-015
  +1.47463862139092042398e-015
  +1.51449490969103334404e-015
  +1.55435246854056714554e-015
  +1.59421172145599545565e-015
  +1.63407351547026552866e-015
  +1.67393996816574550032e-015
  +1.71381573822364526928e-015
  +1.75370675487459561565e-015
  +1.79362275899748996388e-015
  +1.83358407938306241717e-015
  +1.87362163273388775750e-015
  +1.91379217025743202298e-015
  +1.95419140667673534399e-015
  +1.99498366638356426591e-015
  +2.03645439948114427685e-015
  +2.07909149694709385378e-015
  +2.12373775656393063111e-015
  +2.17183991060556613712e-015
  +2.22588400077219174329e-015
  +2.29014584938154834105e-015
  +2.37196584395454327483e-015
  +2.48395545804284897784e-015
  +2.64776908894302597698e-015
  +2.90057284831470753442e-015
  +3.30615255225089293670e-015
  +3.97394062237212597081e-015
  +5.09164718308652905680e-015
  -1.58819609346338096328e-015
  +1.49111595331272315764e-015
  +2.42152489466268214805e-015
  +2.62334828203572245513e-015
  +4.67340687767345130066e-015
  +3.89025884936026500610e-015
  +3.13444457425357357208e-015
  -3.45578600452565007147e-015
  -3.23615629050210758916e-015
  -1.59653403161431390755e-014
  -2.56116488267976149871e-014
  -4.43629525011913076853e-014
  -6.70201148256427183524e-014
  -1.22803655728275727674e-013
  -2.09140250119145005640e-013
  -3.55113273040012916990e-013
  -5.92963828867696934966e-013
  -1.01057241764527160241e-012
  -1.70230642373781144406e-012
  -2.87862111343926433525e-012
  -4.86051569558347946337e-012
  -8.21319338179676617997e-012
  -1.38623515193439480575e-011
  -2.34226745848508698959e-011
  -3.95642494085074694216e-011
  -6.68395566519421163568e-011
  -1.12904642027269815304e-010
  -1.90691587314443799480e-010
  -3.22092150375745691171e-010
  -5.44040313472863673799e-010
  -9.18920695473489516333e-010
  -1.55211243350098114328e-009
  -2.62160776415572474717e-009
  -4.42802029006051325266e-009
  -7.47912430064760491609e-009
  -1.26324927958633029893e-008
  -2.13364755392696560881e-008
  -3.60369943507369395535e-008
  -6.08640885386110158776e-008
  -1.02790146573592126287e-007
  -1.73581877453353105958e-007
  -2.93085272842169377668e-007
  -4.94739854731617238619e-007
  -8.34795311212670459825e-007
  -1.40760486575600300174e-006
  -2.37068877506944787213e-006
  -3.98494603852516560166e-006
  -6.67683257178625818294e-006
  -1.11283987157621608159e-005
  -1.83925231865411817572e-005
  -3.00054906250363879940e-005
  -4.80221555865868629217e-005
  -7.48563238350756200929e-005
  -1.12853381005069005011e-004
  -1.63715232052763520363e-004
  -2.28091207588992337134e-004
  -3.05568722575883119051e-004
  -3.94993343701017141263e-004
  -4.94870998527207218293e-004
  -6.03672808200981050354e-004
  -7.20001651029489927319e-004
  -8.42654965438338838038e-004
  -9.70629638783451677980e-004
  -1.10310145349269477996e-003
  -1.23939690159410365912e-003
  -1.37896555063123874701e-003
  -1.52135600851389875439e-003
  -1.66619614219784268998e-003
  -1.81317723397123693393e-003
  -1.96204145315050180326e-003
  -2.11257199680814789639e-003
  -2.26458533168811659148e-003
  -2.41792507297890982981e-003
  -2.57245713340950718159e-003
  -2.72806585839756744055e-003
  -2.88465092864467536823e-003
  -3.04212486247820625834e-003
  -3.20041098929336673140e-003
  -3.35944179506623150436e-003
  -3.51915756347151095773e-003
  -3.67950525324053315940e-003
  -3.84043756540537522745e-003
  -4.00191216411883640691e-003
  -4.16389102233419901994e-003
  -4.32633986960273813488e-003
  -4.48922772380889924942e-003
  -4.65252649228013476917e-003
  -4.81621063050354132618e-003
  -4.98025684890521149611e-003
  -5.14464385994259018609e-003
  -5.30935215911005915085e-003
  -5.47436383463928682297e-003
  -5.63966240155867534756e-003
  -5.80523265650418392875e-003
  -5.97106055028635059750e-003
  -6.13713307571513936450e-003
  -6.30343816853768182384e-003
  -6.46996461974729940997e-003
  -6.63670199772211852340e-003
  -6.80364057892605955669e-003
  -6.97077128608047415226e-003
  -7.13808563286169941997e-003
  -7.30557567433179431277e-003
  -7.47323396239951438097e-003
  -7.64105350573018350657e-003
  -7.80902773357555844008e-003
  -7.97715046307946422377e-003
  -8.14541586967384989570e-003
  -8.31381846021565437677e-003
  -8.48235304857479152640e-003
  -8.65101473341158867802e-003
  -8.81979887790931837976e-003
  -8.98870109126129711308e-003
  -9.15771721174350045169e-003
  -9.32684329119777381922e-003
  -9.49607558080397227973e-003
  -9.66541051800389600102e-003
  -9.83484471447602232042e-003
  -1.00043749450527963418e-002
  -1.01739981375041695782e-002
  -1.03437113630990267649e-002
  -1.05135118278821670240e-002
  -1.06833968645956706167e-002
  -1.08533639251943165444e-002
  -1.10234105739034516508e-002
  -1.11935344807703399811e-002
  -1.13637334156669236179e-002
  -1.15340052427134395763e-002
  -1.17043479150784890397e-002
  -1.18747594701363711617e-002
  -1.20452380249401261314e-002
  -1.22157817719999381434e-002
  -1.23863889753313537873e-002
  -1.25570579667602880841e-002
  -1.27277871424585267007e-002
  -1.28985749597000497885e-002
</dep>
<dep Current.I UV1>
  +0.00000000000000000000e+000
  -3.98550574553614288238e-017
  -7.97101149107228576476e-017
  -1.19565159131194497949e-016
  -1.59420229821445715295e-016
  -1.99275300511696957293e-016
  -2.39130318262388995898e-016
  -2.78985441892199441290e-016
  -3.18840459642891430590e-016
  -3.58695477393583469195e-016
  -3.98550601023393914587e-016
  -4.38405618774085953191e-016
  -4.78260636524777991796e-016
  -5.18115654275470030400e-016
  -5.57970883784398882580e-016
  -5.97825689776854009001e-016
  -6.37680919285782861181e-016
  -6.77535937036474899785e-016
  -7.17390954787166938390e-016
  -7.57245972537858976994e-016
  -7.97101202046787829174e-016
  -8.36956008039243054203e-016
  -8.76811237548171906382e-016
  -9.16666255298863944987e-016
  -9.56521273049555983591e-016
  -9.96376290800248022196e-016
  -1.03623130855094006080e-015
  -1.07608674981810572655e-015
  -1.11594176756879776516e-015
  -1.15579636180301617661e-015
  -1.19565137955370801800e-015
  -1.23550639730440005661e-015
  -1.27536183857156572236e-015
  -1.31521685632225776097e-015
  -1.35507229758942342672e-015
  -1.39492731534011546533e-015
  -1.43478275660728113108e-015
  -1.47463862139092042398e-015
  -1.51449490969103334404e-015
  -1.55435246854056714554e-015
  -1.59421172145599545565e-015
  -1.63407351547026552866e-015
  -1.67393996816574550032e-015
  -1.71381573822364526928e-015
  -1.75370675487459561565e-015
  -1.79362275899748996388e-015
  -1.83358407938306241717e-015
  -1.87362163273388775750e-015
  -1.91379217025743202298e-015
  -1.95419140667673534399e-015
  -1.99498366638356426591e-015
  -2.03645439948114427685e-015
  -2.07909149694709385378e-015
  -2.12373775656393063111e-015
  -2.17183991060556613712e-015
  -2.22588400077219174329e-015
  -2.29014584938154834105e-015
  -2.37196584395454327483e-015
  -2.48395545804284897784e-015
  -2.64776908894302597698e-015
  -2.90057284831470753442e-015
  -3.30615255225089293670e-015
  -3.97394062237212597081e-015
  -5.09164718308652905680e-015
  +1.58819609346338096328e-015
  -1.49111595331272315764e-015
  -2.42152489466268214805e-015
  -2.62334828203572245513e-015
  -4.67340687767345130066e-015
  -3.89025884936026500610e-015
  -3.13444457425357357208e-015
  +3.45578600452565007147e-015
  +3.23615629050210758916e-015
  +1.59653403161431390755e-014
  +2.56116488267976149871e-014
  +4.43629525011913076853e-014
  +6.70201148256427183524e-014
  +1.22803655728275727674e-013
  +2.09140250119145005640e-013
  +3.55113273040012916990e-013
  +5.92963828867696934966e-013
  +1.01057241764527160241e-012
  +1.70230642373781144406e-012
  +2.87862111343926433525e-012
  +4.86051569558347946337e-012
  +8.21319338179676617997e-012
  +1.38623515193439480575e-011
  +2.34226745848508698959e-011
  +3.95642494085074694216e-011
  +6.68395566519421163568e-011
  +1.12904642027269815304e-010
  +1.90691587314443799480e-010
  +3.22092150375745691171e-010
  +5.44040313472863673799e-010
  +9.18920695473489516333e-010
  +1.55211243350098114328e-009
  +2.62160776415572474717e-009
  +4.42802029006051325266e-009
  +7.47912430064760491609e-009
  +1.26324927958633029893e-008
  +2.13364755392696560881e-008
  +3.60369943507369395535e-008
  +6.08640885386110158776e-008
  +1.02790146573592126287e-007
  +1.73581877453353105958e-007
  +2.93085272842169377668e-007
  +4.94739854731617238619e-007
  +8.34795311212670459825e-007
  +1.40760486575600300174e-006
  +2.37068877506944787213e-006
  +3.98494603852516560166e-006
  +6.67683257178625818294e-006
  +1.11283987157621608159e-005
  +1.83925231865411817572e-005
  +3.00054906250363879940e-005
  +4.80221555865868629217e-005
  +7.48563238350756200929e-005
  +1.12853381005069005011e-004
  +1.63715232052763520363e-004
  +2.28091207588992337134e-004
  +3.05568722575883119051e-004
  +3.94993343701017141263e-004
  +4.94870998527207218293e-004
  +6.03672808200981050354e-004
  +7.20001651029489927319e-004
  +8.42654965438338838038e-004
  +9.70629638783451677980e-004
  +1.10310145349269477996e-003
  +1.23939690159410365912e-003
  +1.37896555063123874701e-003
  +1.52135600851389875439e-003
  +1.66619614219784268998e-003
  +1.81317723397123693393e-003
  +1.96204145315050180326e-003
  +2.11257199680814789639e-003
  +2.26458533168811659148e-003
  +2.41792507297890982981e-003
  +2.57245713340950718159e-003
  +2.72806585839756744055e-003
  +2.88465092864467536823e-003
  +3.04212486247820625834e-003
  +3.20041098929336673140e-003
  +3.35944179506623150436e-003
  +3.51915756347151095773e-003
  +3.67950525324053315940e-003
  +3.84043756540537522745e-003
  +4.00191216411883640691e-003
  +4.16389102233419901994e-003
  +4.32633986960273813488e-003
  +4.48922772380889924942e-003
  +4.65252649228013476917e-003
  +4.81621063050354132618e-003
  +4.98025684890521149611e-003
  +5.14464385994259018609e-003
  +5.30935215911005915085e-003
  +5.47436383463928682297e-003
  +5.63966240155867534756e-003
  +5.80523265650418392875e-003
  +5.97106055028635059750e-003
  +6.13713307571513936450e-003
  +6.30343816853768182384e-003
  +6.46996461974729940997e-003
  +6.63670199772211852340e-003
  +6.80364057892605955669e-003
  +6.97077128608047415226e-003
  +7.13808563286169941997e-003
  +7.30557567433179431277e-003
  +7.47323396239951438097e-003
  +7.64105350573018350657e-003
  +7.80902773357555844008e-003
  +7.97715046307946422377e-003
  +8.14541586967384989570e-003
  +8.31381846021565437677e-003
  +8.48235304857479152640e-003
  +8.65101473341158867802e-003
  +8.81979887790931837976e-003
  +8.98870109126129711308e-003
  +9.15771721174350045169e-003
  +9.32684329119777381922e-003
  +9.49607558080397227973e-003
  +9.66541051800389600102e-003
  +9.83484471447602232042e-003
  +1.00043749450527963418e-002
  +1.01739981375041695782e-002
  +1.03437113630990267649e-002
  +1.05135118278821670240e-002
  +1.06833968645956706167e-002
  +1.08533639251943165444e-002
  +1.10234105739034516508e-002
  +1.11935344807703399811e-002
  +1.13637334156669236179e-002
  +1.15340052427134395763e-002
  +1.17043479150784890397e-002
  +1.18747594701363711617e-002
  +1.20452380249401261314e-002
  +1.22157817719999381434e-002
  +1.23863889753313537873e-002
  +1.25570579667602880841e-002
  +1.27277871424585267007e-002
  +1.28985749597000497885e-002
</dep>
<dep _net2.V UV1>
  +0.00000000000000000000e+000
  +6.03015075377021508851e-002
  +1.20603015075404301770e-001
  +1.80904522613106466533e-001
  +2.41206030150808603540e-001
  +3.01507537688510740548e-001
  +3.61809045226212933066e-001
  +4.22110552763915070074e-001
  +4.82412060301617207081e-001
  +5.42713567839319344088e-001
  +6.03015075377021481096e-001
  +6.63316582914723618103e-001
  +7.23618090452425866133e-001
  +7.83919597990127892118e-001
  +8.44221105527830140147e-001
  +9.04522613065532277155e-001
  +9.64824120603234414162e-001
  +1.02512562814093666219e+000
  +1.08542713567863868818e+000
  +1.14572864321634093621e+000
  +1.20603015075404296219e+000
  +1.26633165829174521022e+000
  +1.32663316582944723621e+000
  +1.38693467336714948424e+000
  +1.44723618090485173227e+000
  +1.50753768844255398029e+000
  +1.56783919598025578424e+000
  +1.62814070351795803226e+000
  +1.68844221105566028029e+000
  +1.74874371859336252832e+000
  +1.80904522613106455431e+000
  +1.86934673366876680234e+000
  +1.92964824120646882832e+000
  +1.98994974874417107635e+000
  +2.05025125628187332438e+000
  +2.11055276381957535037e+000
  +2.17085427135727737635e+000
  +2.23115577889497940234e+000
  +2.29145728643268187241e+000
  +2.35175879397038389840e+000
  +2.41206030150808592438e+000
